EXPLAIN
TAG	EISPOT
TITLE	LABEL	Potentiostatic EIS	Test Identifier
DATE	LABEL	5/30/2025	Date
TIME	LABEL	12:37:57	Time
NOTES	NOTES	1	Notes...
	
PSTAT	PSTAT	IFC1010-32208	Potentiostat
VDC	POTEN	0.00000E+000	T	DC Voltage (V)
FREQINIT	QUANT	2.00000E-001	Initial Freq. (Hz)
FREQFINAL	QUANT	1.00000E+006	Final Freq. (Hz)
PTSPERDEC	QUANT	1.00000E+001	Points/decade
VAC	QUANT	2.00000E+001	AC Voltage (mV rms)
AREA	QUANT	1.00000E+000	Sample Area (cm^2)
SPEED	SELECTOR	1	Optimize for:
DRIFTCOR	SELECTOR	0	Drift Correction
ZGUESS	QUANT	1.00000E+003	Estimated Z (ohms)
EOC	QUANT	0	Open Circuit (V)
SEQUENCER	TOGGLE	TRUE	Run as Sequence
PSTATMODEL	IQUANT	64	Pstat Model
PSTATSECTION	LABEL	IFC1010-32208	Pstat Section
PSTATSERIALNO	LABEL	32208	Pstat Serial Number
CTRLMODE	IQUANT	1	Control Mode
ELECTROMETER	IQUANT	0	RE=0 or CS=1
IESTAB	IQUANT	0	I/E Stability
CASPEED	IQUANT	3	Control Amp Speed
CONVENTION	IQUANT	1	Current Convention
ICHRANGE	IQUANT	2	Ich Range
ICHRANGEMODE	TOGGLE	F	Ich Auto Range
ICHOFFSETENABLE	TOGGLE	T	Ich Offset Enable
ICHOFFSET	QUANT	0	Ich Offset (V)
ICHFILTER	IQUANT	4	Ich Filter
VCHRANGE	IQUANT	2	Vch Range
VCHRANGEMODE	TOGGLE	F	Vch Auto Range
VCHOFFSETENABLE	TOGGLE	T	Vch Offset Enable
VCHOFFSET	QUANT	0	Vch Offset (V)
VCHFILTER	IQUANT	4	Vch Filter
IERANGELOWERLIMIT	IQUANT	4	I/E Range Lower Limit
IERANGEMODE	TOGGLE	F	I/E AutoRange
IERANGE	IQUANT	11	I/E Range
ACHSELECT	IQUANT	0	Ach Select
ACHRANGE	IQUANT	2	Ach Range
ACHOFFSETENABLE	TOGGLE	F	Ach Offset Enable
ACHOFFSET	QUANT	0	Ach Offset (V)
ACHFILTER	IQUANT	1	Ach Filter
SENSECABLEID	IQUANT	14	Sense Cable ID
PWRCABLEID	IQUANT	14	Power Cable ID
DCCALDATE	LABEL	5/20/2025	DC Calibration Date
ACCALDATE	LABEL	4/14/2022	AC Calibration Date
FRAMEWORKVERSION	LABEL	7.9.0	Framework Version
INSTRUMENTVERSION	LABEL	4.60	Instrument Version
ZCURVE	TABLE
	Pt	Time	Freq	Zreal	Zimag	Zsig	Zmod	Zphz	Idc	Vdc	IERange
	#	s	Hz	ohm	ohm	V	ohm	°	A	V	#
	0	23	0.2003205	782492.3	-1846082	1	2005072	-67.02954	7.985793E-011	-3.838544E-005	5
	1	44	0.2520161	657454.5	-1558684	1	1691669	-67.12994	6.510077E-011	-3.894557E-005	5
	2	61	0.3175813	551192.1	-1314175	1	1425085	-67.24581	5.622164E-011	-3.882288E-005	5
	3	75	0.3999573	461808.6	-1108289	1	1200655	-67.37919	4.641104E-011	-3.867412E-005	5
	4	87	0.5029507	386880.6	-935485.4	1	1012329	-67.53191	3.42355E-011	-3.795256E-005	5
	5	96	0.6334459	323291.6	-788423.8	1	852132.3	-67.70402	2.019748E-011	-3.746621E-005	5
	6	104	0.7971939	269945.7	-664622.6	1	717352	-67.89479	8.514855E-013	-3.810144E-005	5
	7	110	1.010237	223870.9	-557014.5	1	600319.4	-68.1042	-1.329103E-012	-3.831796E-005	5
	8	116	1.273777	186098.2	-468419.9	1	504033.5	-68.3326	-2.537023E-011	-3.753384E-005	5
	9	122	1.605308	154518	-393807.2	1	423036.6	-68.57646	-5.518766E-011	-3.77935E-005	5
	10	126	2.020474	128253.4	-331185.9	1	355152.2	-68.83086	-9.185885E-011	-3.736716E-005	5
	11	130	2.547554	106150.4	-277918.6	1	297500.7	-69.09576	-1.401871E-010	-3.805166E-005	5
	12	133	3.175813	88165.42	-234471.7	1	250499.7	-69.39287	-2.722349E-009	-4.382612E-005	7
	13	137	4.040948	72292.71	-195136.6	1	208097.4	-69.67173	-4.484197E-010	-3.724496E-005	6
	14	140	5.095109	59606.67	-163348.6	1	173884.2	-69.95274	-5.007539E-010	-3.625828E-005	6
	15	142	6.351626	49557.79	-137804.7	1	146444.9	-70.22022	-5.421722E-010	-4.476597E-005	6
	16	145	7.971939	40949.19	-115572.6	1	122612.7	-70.48997	-6.230206E-010	-3.620694E-005	6
	17	147	9.91015	34089.88	-97566.7	1	103350.8	-70.74055	-7.312602E-010	-3.110753E-005	6
	18	148	12.40079	28211.98	-81892.73	1	86616.02	-70.99121	-8.014032E-010	-3.565869E-005	6
	19	150	15.94388	22806.74	-67232.52	1	70995.49	-71.26195	-9.273415E-010	-3.560423E-005	6
	20	152	19.94681	18859.09	-56355.9	1	59427.71	-71.49756	-1.077029E-009	-2.968999E-005	6
	21	154	24.93351	15601.92	-47241.68	1	49751.34	-71.72381	-1.224413E-009	-3.001325E-005	6
	22	155	31.88775	12652.85	-38864.88	1	40872.65	-71.96683	-1.17512E-009	-4.407741E-005	6
	23	157	39.72458	10481.04	-32622.63	1	34264.97	-72.18877	-1.384969E-009	-3.019659E-005	6
	24	158	49.86702	8626.174	-27214.18	1	28548.6	-72.41277	-1.614374E-009	-3.061753E-005	6
	25	160	63.34459	6999.442	-22426.26	1	23493.18	-72.66638	-2.988221E-008	-3.55442E-005	8
	26	162	79.44915	5717.834	-18650.79	1	19507.58	-72.95586	-4.665773E-009	-3.020952E-005	7
	27	163	99.734	4739.933	-15567.51	1	16273.11	-73.06577	-2.508329E-009	-4.187766E-005	7
	28	164	126.6892	3849.177	-12808.44	1	13374.32	-73.27349	-2.561498E-009	-4.188658E-005	7
	29	166	158.0056	3181.34	-10684.96	1	11148.52	-73.41963	-2.148715E-009	-5.539133E-005	7
	30	167	200.8929	2584.874	-8759.152	1	9132.597	-73.55838	-2.23547E-009	-4.806602E-005	7
	31	169	251.1161	2139.802	-7269.847	1	7578.221	-73.59877	-2.226638E-009	-4.636234E-005	7
	32	170	319.6023	1754.3	-5932.06	1	6186.025	-73.52537	-2.226752E-009	-4.698812E-005	7
	33	171	397.2458	1476.857	-4929.513	1	5145.989	-73.32205	-2.378655E-009	-4.102747E-005	7
	34	173	498.6702	1244.57	-4054.14	1	4240.873	-72.93417	-2.443217E-009	-3.947743E-005	7
	35	174	631.0096	1055.167	-3305.067	1	3469.416	-72.29394	-2.709699E-009	-4.587522E-005	7
	36	176	800.3049	906.538	-2683.572	1	2832.556	-71.33451	-2.152454E-009	-6.009015E-005	7
	37	177	1004.464	796.1152	-2195.784	1	2335.652	-70.07111	-3.345149E-007	-4.804804E-005	9
	38	179	1257.622	710.8216	-1797.279	1	1932.739	-68.42126	-2.619981E-008	-6.037144E-005	8
	39	180	1598.011	640.8	-1450.212	1	1585.478	-66.16098	-2.462708E-008	-4.432633E-005	8
	40	182	1979.167	592.4532	-1196.564	1	1335.203	-63.65867	-2.440606E-008	-6.014472E-005	8
	41	183	2507.267	550.8911	-966.851	1	1112.781	-60.32643	-2.456896E-008	-5.715966E-005	8
	42	185	3161.337	519.2932	-784.5585	1	940.8493	-56.49973	-2.460157E-008	-5.823647E-005	8
	43	186	4001.524	494.127	-634.7711	1	804.4226	-52.10162	-2.436697E-008	-6.072897E-005	8
	44	187	5039.063	474.5842	-516.4042	1	701.3583	-47.41647	-2.485574E-008	-4.664321E-005	8
	45	189	6288.11	459.2237	-424.0109	1	625.0373	-42.71694	-6.632158E-008	-7.594937E-005	8
	46	190	7888.72	446.1416	-346.9813	1	565.1887	-37.87357	-6.296239E-008	-7.463535E-005	8
	47	192	9946.65	434.9877	-282.9276	1	518.9049	-33.04105	-6.614101E-008	-7.676978E-005	8
	48	193	12773.44	425.0101	-227.2733	1	481.9614	-28.13556	-1.092599E-008	-4.95423E-005	8
	49	195	16054.69	417.3481	-186.1903	1	456.997	-24.04294	-1.669264E-009	-4.206045E-005	8
	50	196	20039.06	411.187	-153.5117	1	438.9084	-20.47251	-1.341249E-009	-4.296021E-005	8
	51	198	25195.31	405.8701	-125.9048	1	424.9501	-17.23439	-8.745072E-009	-4.606111E-005	8
	52	199	31757.81	401.4701	-103.1456	1	414.5085	-14.40878	-7.434835E-009	-4.713419E-005	8
	53	201	39960.94	397.9191	-84.79322	1	406.8531	-12.02933	-2.903079E-009	-4.328173E-005	8
	54	202	50273.44	394.9508	-69.92401	1	401.0929	-10.03989	-1.862304E-009	-4.182931E-005	8
	55	204	63398.44	392.5381	-57.74367	1	396.7625	-8.368384	-1.008169E-008	-4.547091E-005	8
	56	205	79804.69	390.6339	-48.12301	1	393.5869	-7.023002	1.869921E-009	-4.100559E-005	8
	57	207	100429.7	389.177	-40.6309	1	391.2922	-5.960208	4.095142E-009	-4.239603E-005	8
	58	208	126210.9	388.1314	-35.1946	1	389.7238	-5.18124	2.146979E-008	3.730577E-005	8
	59	210	159023.4	386.7565	-31.0318	1	387.9995	-4.587358	1.101472E-008	3.700663E-005	8
	60	211	200039.1	385.7003	-28.18452	1	386.7287	-4.179383	1.78491E-008	4.102551E-005	8
	61	213	251835.9	384.4281	-26.40832	1	385.3341	-3.929764	-3.540561E-008	2.740228E-005	8
	62	214	316992.2	382.0302	-25.82049	1	382.9017	-3.866601	-6.132649E-007	2.036672E-006	9
	63	216	399257.8	380.5309	-26.12018	1	381.4263	-3.926704	-1.949674E-007	-1.561183E-005	9
	64	218	502382.8	379.0075	-27.48179	1	380.0025	-4.147253	-5.982792E-007	-2.058162E-005	9
	65	219	632460.9	377.3297	-29.91446	1	378.5137	-4.532891	-5.997742E-007	-3.84217E-005	9
	66	221	796289.1	375.0114	-33.54	1	376.5083	-5.110781	-1.651602E-007	-8.96407E-005	9
	67	222	1002539	371.4587	-38.11316	1	373.4089	-5.858278	-6.599886E-007	-0.000128	9
