EXPLAIN
TAG	EISPOT
TITLE	LABEL	Potentiostatic EIS	Test &Identifier

ZCURVE	TABLE
	Pt	Time	Freq	Zreal	Zimag	Zsig	Zmod	Zphz	Idc	Vdc	IERange
	#	s	Hz	ohm	ohm	V	ohm	°	A	V	#
	0	41.866929	0.200321	781144.8125	-1835819.5	1.0	1995099.125	-66.95015	0.0	-3.9e-05	5
	1	58.102875	0.252016	656399.3125	-1550212.25	1.0	1683454.25	-67.050964	0.0	-3.8e-05	5
	2	71.057173	0.317581	550327.0	-1307292.0	1.0	1418404.75	-67.170509	0.0	-3.9e-05	5
	3	81.419742	0.399957	461143.34375	-1102679.25	1.0	1195221.625	-67.305191	0.0	-3.9e-05	5
	4	89.730983	0.502951	386401.9375	-930844.0	1.0	1007857.625	-67.456215	0.0	-4e-05	5
	5	96.404865	0.633446	322939.1875	-784648.0	1.0	848505.875	-67.629303	0.0	-3.9e-05	5
	6	101.782411	0.797194	269636.5625	-661539.6875	1.0	714379.875	-67.824715	0.0	-3.7e-05	5
	7	107.092272	1.010237	223601.359375	-554551.875	1.0	597934.25	-68.040169	0.0	-3.8e-05	5
	8	111.379616	1.273777	185882.03125	-466422.59375	1.0	502097.75	-68.271378	0.0	-3.7e-05	5
	9	114.855089	1.605308	154355.40625	-392192.3125	1.0	421474.09375	-68.516853	0.0	-3.8e-05	5
	10	117.688841	2.020474	128120.804688	-329866.03125	1.0	353873.625	-68.773705	0.0	-3.7e-05	5
	11	120.013556	2.547554	105825.007812	-276422.5	1.0	295987.03125	-69.051262	0.0	-3.5e-05	5
	12	121.003583	3.175813	89981.976562	-248474.484375	1.0	264265.625	-70.092766	-0.0	-4.4e-05	6
	13	122.629098	3.942389	73763.515625	-198169.515625	1.0	211452.625	-69.583511	-0.0	-4.4e-05	6
	14	123.99337	4.970838	60824.292969	-165916.4375	1.0	176714.0625	-69.867271	-0.0	-4.3e-05	6
	15	125.139785	6.351626	49551.128906	-137365.171875	1.0	146029.125	-70.16433	-0.0	-4.3e-05	6
	16	126.127793	7.971939	40948.195312	-115209.796875	1.0	122270.40625	-70.433624	-0.0	-3.6e-05	6
	17	126.990268	9.910148	34097.136719	-97278.328125	1.0	103080.976562	-70.683868	-0.0	-3.1e-05	6
	18	127.742631	12.703252	27653.142578	-80129.851562	1.0	84767.265625	-70.960236	-0.0	-4.3e-05	6
	19	128.414577	15.943877	22818.550781	-67050.195312	1.0	70826.65625	-71.205513	-0.0	-3.6e-05	6
	20	129.024875	19.946808	18878.279297	-56208.453125	1.0	59294.011719	-71.434761	-0.0	-2.9e-05	6
	21	129.583091	24.93351	15628.788086	-47123.710938	1.0	49647.789062	-71.651672	-0.0	-3e-05	6
	22	130.1307	31.887754	12678.208984	-38770.542969	1.0	40790.832031	-71.89193	-0.0	-4.3e-05	6
	23	130.640317	39.724575	10505.571289	-32547.732422	1.0	34201.199219	-72.111252	-0.0	-3e-05	6
	24	131.123155	49.86702	8650.28125	-27152.6875	1.0	28497.294922	-72.329201	-0.0	-3.1e-05	6
	25	131.51299	63.344593	7610.796875	-24593.09375	1.0	25743.824219	-72.804329	-0.0	-1.5e-05	7
	26	131.949354	79.44915	5739.745605	-18620.486328	1.0	19485.050781	-72.868141	-0.0	-3e-05	7
	27	132.298945	99.734039	4760.082031	-15540.077148	1.0	16252.765625	-72.969643	-0.0	-4e-05	7
	28	132.71813	126.689186	3869.426514	-12786.983398	1.0	13359.618164	-73.163834	-0.0	-3.9e-05	7
	29	133.114808	158.005615	3197.749756	-10668.5625	1.0	11137.496094	-73.314644	-0.0	-5.3e-05	7
	30	133.48732	200.892853	2603.680908	-8746.895508	1.0	9126.189453	-73.423355	-0.0	-4.5e-05	7
	31	133.845245	251.116074	2158.989746	-7260.327148	1.0	7574.535645	-73.439201	-0.0	-4.4e-05	7
	32	134.191961	319.602264	1772.6521	-5925.038574	1.0	6184.527344	-73.34388	-0.0	-4.5e-05	7
	33	134.552488	397.245758	1495.055786	-4923.748535	1.0	5145.725586	-73.10952	-0.0	-3.8e-05	7
	34	134.899709	498.670227	1262.905396	-4050.013428	1.0	4242.350586	-72.681091	-0.0	-3.7e-05	7
	35	135.254366	631.009644	1072.737793	-3301.775146	1.0	3471.668945	-72.00116	-0.0	-4.4e-05	7
	36	135.599802	800.304871	924.436157	-2681.4646	1.0	2836.341797	-70.97834	-0.0	-5.9e-05	7
	37	135.907362	1004.464294	837.606934	-2261.257812	1.0	2411.404541	-69.674545	-0.0	-4.3e-05	8
	38	136.283049	1257.621948	728.008484	-1795.975342	1.0	1937.917358	-67.934555	-0.0	-5.9e-05	8
	39	136.667452	1598.011353	657.988342	-1449.447266	1.0	1591.805908	-65.583939	-0.0	-4.5e-05	8
	40	137.05315	1979.166626	609.639099	-1195.833984	1.0	1342.266235	-62.9874	-0.0	-6e-05	8
	41	137.431952	2507.267334	568.059082	-966.263855	1.0	1120.873291	-59.549057	-0.0	-5.7e-05	8
	42	137.812014	3161.337158	536.5401	-784.14386	1.0	950.135193	-55.618629	-0.0	-5.6e-05	8
	43	138.186932	4001.524414	511.569855	-634.44574	1.0	815.000061	-51.119877	-0.0	-5.9e-05	8
	44	138.562389	5039.0625	492.196869	-516.179321	1.0	713.231262	-46.362423	-0.0	-4.4e-05	8
	45	138.94301	6288.109863	477.000122	-423.755859	1.0	638.042419	-41.617146	-0.0	-7.5e-05	8
	46	139.319931	7888.719727	464.062378	-346.725494	1.0	579.286194	-36.76535	-0.0	-7.5e-05	8
	47	139.698164	9946.646484	453.091949	-282.733459	1.0	534.069763	-31.964535	-0.0	-7.6e-05	8
	48	140.074317	12773.4375	443.255524	-227.112	1.0	498.051514	-27.12936	-0.0	-4.6e-05	8
	49	140.448965	16054.6875	435.876556	-185.983368	1.0	473.89682	-23.107368	-0.0	-4.6e-05	8
	50	140.826725	20039.0625	429.925354	-153.348328	1.0	456.455383	-19.630602	0.0	-3.8e-05	8
	51	141.206332	25195.3125	424.81485	-125.689568	1.0	443.018646	-16.481855	-0.0	-3.9e-05	8
	52	141.599693	31757.8125	420.446289	-102.900734	1.0	432.855225	-13.752337	-0.0	-4.5e-05	8
	53	141.991023	39960.9375	416.674652	-84.531227	1.0	425.162659	-11.468018	-0.0	-4.6e-05	8
	54	142.381899	50273.4375	413.58728	-69.577156	1.0	419.398865	-9.549366	-0.0	-3.9e-05	8
	55	142.776393	63398.4375	411.03186	-57.346134	1.0	415.01297	-7.942494	-0.0	-4e-05	8
	56	143.168975	79804.6875	409.020203	-47.60136	1.0	411.780792	-6.638164	-0.0	-4.4e-05	8
	57	143.56297	100429.6875	407.785645	-39.967468	1.0	409.739594	-5.597737	-0.0	-3.9e-05	8
	58	143.955898	126210.9375	406.641388	-34.403774	1.0	408.094147	-4.835976	0.0	3.8e-05	8
	59	144.348823	159023.4375	405.717773	-30.009283	1.0	406.82608	-4.230231	-0.0	2.6e-05	8
	60	144.742623	200039.0625	404.721741	-26.899683	1.0	405.614685	-3.80255	0.0	3.6e-05	8
	61	145.135984	251835.9375	403.79599	-24.914408	1.0	404.563873	-3.530701	0.0	3.5e-05	8
	62	145.445695	316992.1875	319.549072	-42.843082	1.0	322.408356	-7.636311	-0.0	0.000362	9
	63	145.755943	399257.8125	392.067474	-25.561958	1.0	392.899872	-3.730282	-0.0	0.000253	9
	64	146.150586	502382.8125	398.682159	-27.151192	1.0	399.605621	-3.895962	-1e-06	-1.2e-05	9
	65	146.543023	632460.9375	396.976135	-29.518539	1.0	398.072113	-4.2526	-0.0	-5.5e-05	9
	66	146.937276	796289.0625	394.773926	-32.956833	1.0	396.147217	-4.772146	-0.0	-8.1e-05	9
	67	147.324404	1002539.0625	391.672272	-37.350571	1.0	393.449158	-5.447356	-1e-06	-0.000123	9
