EXPLAIN
TAG	EISPOT
TITLE	LABEL	Potentiostatic EIS	Test Identifier
DATE	LABEL	5/30/2025	Date
TIME	LABEL	12:43:09	Time
NOTES	NOTES	1	Notes...
	
PSTAT	PSTAT	IFC1010-32208	Potentiostat
VDC	POTEN	0.00000E+000	F	DC Voltage (V)
FREQINIT	QUANT	2.00000E-001	Initial Freq. (Hz)
FREQFINAL	QUANT	1.00000E+006	Final Freq. (Hz)
PTSPERDEC	QUANT	1.00000E+001	Points/decade
VAC	QUANT	2.00000E+001	AC Voltage (mV rms)
AREA	QUANT	1.00000E+000	Sample Area (cm^2)
SPEED	SELECTOR	1	Optimize for:
DRIFTCOR	SELECTOR	0	Drift Correction
ZGUESS	QUANT	1.00000E+003	Estimated Z (ohms)
EOC	QUANT	0	Open Circuit (V)
SEQUENCER	TOGGLE	TRUE	Run as Sequence
PSTATMODEL	IQUANT	64	Pstat Model
PSTATSECTION	LABEL	IFC1010-32208	Pstat Section
PSTATSERIALNO	LABEL	32208	Pstat Serial Number
CTRLMODE	IQUANT	1	Control Mode
ELECTROMETER	IQUANT	0	RE=0 or CS=1
IESTAB	IQUANT	0	I/E Stability
CASPEED	IQUANT	3	Control Amp Speed
CONVENTION	IQUANT	1	Current Convention
ICHRANGE	IQUANT	2	Ich Range
ICHRANGEMODE	TOGGLE	F	Ich Auto Range
ICHOFFSETENABLE	TOGGLE	T	Ich Offset Enable
ICHOFFSET	QUANT	0	Ich Offset (V)
ICHFILTER	IQUANT	4	Ich Filter
VCHRANGE	IQUANT	2	Vch Range
VCHRANGEMODE	TOGGLE	F	Vch Auto Range
VCHOFFSETENABLE	TOGGLE	T	Vch Offset Enable
VCHOFFSET	QUANT	0	Vch Offset (V)
VCHFILTER	IQUANT	4	Vch Filter
IERANGELOWERLIMIT	IQUANT	4	I/E Range Lower Limit
IERANGEMODE	TOGGLE	F	I/E AutoRange
IERANGE	IQUANT	11	I/E Range
ACHSELECT	IQUANT	0	Ach Select
ACHRANGE	IQUANT	2	Ach Range
ACHOFFSETENABLE	TOGGLE	F	Ach Offset Enable
ACHOFFSET	QUANT	0	Ach Offset (V)
ACHFILTER	IQUANT	1	Ach Filter
SENSECABLEID	IQUANT	14	Sense Cable ID
PWRCABLEID	IQUANT	14	Power Cable ID
DCCALDATE	LABEL	5/20/2025	DC Calibration Date
ACCALDATE	LABEL	4/14/2022	AC Calibration Date
FRAMEWORKVERSION	LABEL	7.9.0	Framework Version
INSTRUMENTVERSION	LABEL	4.60	Instrument Version
ZCURVE	TABLE
	Pt	Time	Freq	Zreal	Zimag	Zsig	Zmod	Zphz	Idc	Vdc	IERange
	#	s	Hz	ohm	ohm	V	ohm	°	A	V	#
	0	23	0.2003205	784313.5	-1856224	1	2015121	-67.0944	5.407123E-011	-4.177799E-005	5
	1	44	0.2520161	658949.1	-1566813	1	1699740	-67.19001	4.276601E-011	-4.307113E-005	5
	2	61	0.3175813	552405.8	-1320647	1	1431524	-67.30122	3.549933E-011	-4.079477E-005	5
	3	75	0.3999573	462742.7	-1113528	1	1205851	-67.43397	2.724275E-011	-4.236886E-005	5
	4	87	0.5029507	387609.2	-939684.2	1	1016488	-67.5844	1.584841E-011	-4.0216E-005	5
	5	96	0.6334459	323855	-791851.3	1	855517.7	-67.75619	1.088379E-012	-3.970395E-005	5
	6	104	0.7971939	270378.7	-667384.5	1	720074.1	-67.94556	-1.830877E-011	-4.056902E-005	5
	7	110	1.010237	224194.2	-559208.7	1	602476.1	-68.1535	-1.955386E-011	-4.010933E-005	5
	8	117	1.273777	186331.6	-470194.3	1	505768.9	-68.38225	-4.29852E-011	-3.993971E-005	5
	9	122	1.605308	154693.9	-395244.5	1	424438.9	-68.62523	-7.197154E-011	-4.138809E-005	5
	10	126	2.020474	128378.1	-332330.7	1	356264.8	-68.87864	-1.091376E-010	-4.136669E-005	5
	11	130	2.547554	106242.6	-278844.8	1	298398.9	-69.14268	-1.564641E-010	-4.140331E-005	5
	12	134	3.175813	88240.85	-235194.1	1	251202.5	-69.43476	-2.717081E-009	-4.834702E-005	7
	13	137	4.040948	72332.13	-195726.4	1	208664.2	-69.71783	-4.665691E-010	-4.134672E-005	6
	14	140	5.095109	59627.43	-163818.3	1	174332.6	-69.99924	-5.214509E-010	-4.083298E-005	6
	15	142	6.351626	49575.82	-138187.7	1	146811.5	-70.2642	-5.68173E-010	-4.824989E-005	6
	16	145	7.971939	40960.69	-115879.3	1	122905.6	-70.53266	-6.597189E-010	-4.120107E-005	6
	17	147	9.91015	34088.88	-97811.3	1	103581.4	-70.7857	-7.593302E-010	-3.425504E-005	6
	18	149	12.40079	28204.65	-82084.64	1	86795.11	-71.03705	-8.241032E-010	-4.017447E-005	6
	19	150	15.94388	22802.85	-67383.53	1	71137.27	-71.30399	-9.456054E-010	-3.906554E-005	6
	20	152	19.94681	18853.51	-56476.5	1	59540.32	-71.53947	-1.113761E-009	-3.34496E-005	6
	21	154	24.93351	15595.03	-47338.86	1	49841.48	-71.76636	-1.26193E-009	-3.388754E-005	6
	22	155	31.88775	12644.45	-38936.59	1	40938.25	-72.00907	-1.183333E-009	-4.671996E-005	6
	23	157	39.72458	10474.3	-32678.44	1	34316.05	-72.22798	-1.403273E-009	-3.455388E-005	6
	24	158	49.86702	8619.619	-27255.67	1	28586.17	-72.45042	-1.614754E-009	-3.415333E-005	6
	25	160	63.34459	6994.052	-22469.64	1	23532.99	-72.71037	-2.707695E-008	-3.972871E-005	8
	26	162	79.44915	5711.156	-18676.47	1	19530.18	-72.99667	-4.700549E-009	-3.480579E-005	7
	27	163	99.734	4734.58	-15586.18	1	16289.42	-73.10291	-2.574023E-009	-4.355202E-005	7
	28	165	126.6892	3845.571	-12823.31	1	13387.52	-73.30659	-2.595317E-009	-4.471272E-005	7
	29	166	158.0056	3175.143	-10695.83	1	11157.16	-73.46605	-2.274575E-009	-5.734806E-005	7
	30	167	200.8929	2582.572	-8767.762	1	9140.204	-73.58749	-2.376659E-009	-4.964753E-005	7
	31	169	251.1161	2137.992	-7276.119	1	7583.727	-73.62527	-2.168031E-009	-4.880261E-005	7
	32	170	319.6023	1753.257	-5936.62	1	6190.103	-73.54659	-2.194691E-009	-5.007518E-005	7
	33	172	397.2458	1476.137	-4932.719	1	5148.854	-73.33997	-2.373405E-009	-4.464024E-005	7
	34	173	498.6702	1244.397	-4056.614	1	4243.187	-72.94621	-2.299029E-009	-4.410493E-005	7
	35	174	631.0096	1054.719	-3306.856	1	3470.984	-72.30997	-2.077905E-009	-4.943788E-005	7
	36	176	800.3049	906.8173	-2684.987	1	2833.985	-71.33831	-2.396533E-009	-6.447546E-005	7
	37	177	1004.464	796.3649	-2196.517	1	2336.425	-70.07148	-3.091614E-007	-4.889438E-005	9
	38	179	1257.622	711.4438	-1797.842	1	1933.491	-68.41025	-2.479944E-008	-6.418397E-005	8
	39	180	1598.011	641.545	-1450.751	1	1586.271	-66.14422	-2.368902E-008	-5.016643E-005	8
	40	182	1979.167	593.1791	-1196.908	1	1335.833	-63.6373	-2.319335E-008	-6.487891E-005	8
	41	183	2507.267	551.605	-967.089	1	1113.341	-60.30057	-2.40736E-008	-6.1544E-005	8
	42	185	3161.337	520.0916	-784.7647	1	941.4621	-56.46614	-2.464411E-008	-6.043505E-005	8
	43	186	4001.524	494.9652	-634.8621	1	805.0096	-52.05852	-2.327488E-008	-6.361243E-005	8
	44	187	5039.063	475.363	-516.5538	1	701.9956	-47.37792	-2.356155E-008	-4.966537E-005	8
	45	189	6288.11	459.9553	-424.0576	1	625.6067	-42.67463	-6.506011E-008	-8.004507E-005	8
	46	190	7888.72	446.9422	-346.9758	1	565.8176	-37.82335	-6.540731E-008	-7.855793E-005	8
	47	192	9946.65	435.723	-282.957	1	519.5375	-32.99955	-6.400239E-008	-8.019942E-005	8
	48	193	12773.44	425.6798	-227.2706	1	482.5508	-28.09777	-9.456784E-009	-5.117804E-005	8
	49	194	16054.69	418.0687	-186.2009	1	457.6595	-24.0074	-8.426738E-009	-5.223135E-005	8
	50	196	20039.06	411.8685	-153.5325	1	439.5542	-20.44398	-7.872494E-009	-5.198695E-005	8
	51	197	25195.31	406.6152	-125.9159	1	425.665	-17.20611	-1.050374E-008	-5.276173E-005	8
	52	199	31757.81	402.1863	-103.1614	1	415.2061	-14.3863	-6.248314E-009	-5.112199E-005	8
	53	200	39960.94	398.6196	-84.79914	1	407.5396	-12.00962	-7.266692E-009	-5.153706E-005	8
	54	201	50273.44	395.6865	-69.91605	1	401.8159	-10.02048	-6.739469E-009	-5.123857E-005	8
	55	203	63398.44	393.3386	-57.76681	1	397.5579	-8.354892	-5.046843E-009	-5.274941E-005	8
	56	204	79804.69	391.4143	-48.13316	1	394.3627	-7.010603	-6.436835E-009	-5.125093E-005	8
	57	206	100429.7	389.9977	-40.6003	1	392.1053	-5.943309	-4.009109E-009	-5.064049E-005	8
	58	207	126210.9	388.9849	-35.19743	1	390.5741	-5.170348	-3.747812E-008	2.49162E-005	8
	59	209	159023.4	387.6167	-31.06585	1	388.8596	-4.582222	-3.525678E-008	2.549116E-005	8
	60	210	200039.1	386.5372	-28.13903	1	387.5601	-4.163659	2.262226E-008	3.532588E-005	8
	61	211	251835.9	385.3691	-26.38597	1	386.2713	-3.916892	1.935649E-008	3.763621E-005	8
	62	213	316992.2	382.9789	-25.96675	1	383.8582	-3.878835	-1.848727E-007	-1.212153E-005	9
	63	215	399257.8	381.5088	-26.06182	1	382.3979	-3.907947	-1.723919E-007	-1.760141E-005	9
	64	216	502382.8	380.1568	-27.47804	1	381.1486	-4.134195	-1.628774E-007	-3.014791E-005	9
	65	218	632460.9	378.2754	-29.80544	1	379.4478	-4.505197	-2.057982E-007	-5.855058E-005	9
	66	219	796289.1	375.5918	-33.30211	1	377.0653	-5.06692	-1.807624E-007	-9.136868E-005	9
	67	221	1002539	372.3252	-38.1436	1	374.274	-5.849374	-1.894241E-007	-0.0001512	9
